LTspice 24.0.12 for Windows
Circuit: * C:\Users\botaa\Desktop\Proiect_Scia\AnalizaDC (2).asc
Start Time: Mon Jan  6 18:53:40 2025
solver = Normal
Maximum thread count: 4
tnom = 27
temp = 27
method = modified trap
Direct Newton iteration failed to find .op point.  (Use ".option noopiter" to skip.)
Starting Gmin stepping
Gmin = 10
Gmin = 1.07374
Gmin = 0.115292
Gmin = 0.0123794
Gmin = 0.00132923
vernier = 0.5
vernier = 0.25
vernier = 0.125
vernier = 0.0625
Gmin = 0.00100083
vernier = 0.03125
vernier = 0.015625
vernier = 0.0078125
vernier = 0.00390625
vernier = 0.00195312
Gmin = 0.00100083
vernier = 0.000976562
vernier = 0.000488281
Gmin = 0
Gmin stepping failed

Starting source stepping with srcstepmethod=0
Source Step = 3.0303%
Source Step = 33.3333%
Source Step = 33.6648%
Source Step = 34.1383%
Source Step = 34.6117%
Source Step = 35.0852%
Source Step = 35.5587%
vernier = 0.0234375
Source Step = 36.1742%
Source Step = 36.8845%
Source Step = 37.5947%
Source Step = 38.3049%
Source Step = 39.0152%
vernier = 0.0351562
Source Step = 39.9029%
Source Step = 40.9683%
Source Step = 42.0336%
Source Step = 43.099%
Source Step = 44.1643%
vernier = 0.0527344
Source Step = 45.4427%
Source Step = 47.0407%
Source Step = 48.6387%
Source Step = 50.2367%
Source Step = 51.8348%
vernier = 0.0791016
Source Step = 53.6725%
Source Step = 56.0695%
Source Step = 58.4665%
Source Step = 60.8635%
Source Step = 63.2605%
vernier = 0.118652
Source Step = 65.8973%
Source Step = 69.4928%
Source Step = 73.0883%
Source Step = 76.6838%
Source Step = 80.2794%
vernier = 0.177979
Source Step = 84.0547%
Source Step = 89.4479%
Source Step = 94.8412%
Source Step = 100%
Source stepping succeeded in finding the operating point.

Semiconductor Device Operating Points:
                        --- Diodes ---
Name:    d:u2:i1     d:u2:1      d:u2:2      d:u2:3      d:u2:4
Model:    u2:dx       u2:dx       u2:dx       u2:dx       u2:dx
Id:     -3.69e-13   -2.24e-12   -2.49e-12   -1.99e-12   -2.40e-12
Vd:     -3.68e-01   -2.24e+00   -2.49e+00   -1.99e+00   -2.40e+00
Req:     1.00e+12    1.00e+12    1.00e+12    1.00e+12    1.00e+12
CAP:     8.55e-13    5.55e-13    5.35e-13    5.78e-13    5.42e-13

Name:    d:u2:5      d:u2:6      d:u2:n1     d:u2:n2     d:u2:n3
Model:    u2:dx       u2:dx      u2:den      u2:den      u2:din
Id:     -4.03e-11    1.02e-05    8.63e-04    8.63e-04    1.26e-04
Vd:     -4.03e+01    5.96e-01    2.00e+00    2.00e+00    2.00e+00
Req:     1.00e+12    2.55e+03    3.00e+01    3.00e+01    2.06e+02
CAP:     1.56e-13    1.55e-12    0.00e+00    0.00e+00    0.00e+00

Name:    d:u2:n4     d:u2:n5     d:u2:n6     d:u2:7      d:u2:8
Model:   u2:din      u2:din      u2:din       u2:dy       u2:dy
Id:      1.26e-04    1.26e-04    1.26e-04   -1.02e-05   -9.41e-12
Vd:      2.00e+00    2.00e+00    2.00e+00   -5.03e+01   -9.40e+00
Req:     2.06e+02    2.06e+02    2.06e+02    2.55e+03    1.00e+12
CAP:     0.00e+00    0.00e+00    0.00e+00    1.40e-13    3.10e-13

Name:    d:u3:i1     d:u3:1      d:u3:2      d:u3:3      d:u3:4
Model:    u3:dx       u3:dx       u3:dx       u3:dx       u3:dx
Id:     -3.69e-13   -1.02e-12   -3.71e-12   -1.99e-12   -2.41e-12
Vd:     -3.68e-01   -1.02e+00   -3.71e+00   -1.99e+00   -2.40e+00
Req:     1.00e+12    1.00e+12    1.00e+12    1.00e+12    1.00e+12
CAP:     8.55e-13    7.04e-13    4.61e-13    5.79e-13    5.42e-13

Name:    d:u3:5      d:u3:6      d:u3:n1     d:u3:n2     d:u3:n3
Model:    u3:dx       u3:dx      u3:den      u3:den      u3:din
Id:      4.02e-05   -4.03e-11    8.63e-04    8.63e-04    1.26e-04
Vd:      6.32e-01   -4.03e+01    2.00e+00    2.00e+00    2.00e+00
Req:     6.44e+02    1.00e+12    3.00e+01    3.00e+01    2.06e+02
CAP:     1.60e-12    1.56e-13    0.00e+00    0.00e+00    0.00e+00

Name:    d:u3:n4     d:u3:n5     d:u3:n6     d:u3:7      d:u3:8
Model:   u3:din      u3:din      u3:din       u3:dy       u3:dy
Id:      1.26e-04    1.26e-04    1.26e-04   -9.37e-12   -4.02e-05
Vd:      2.00e+00    2.00e+00    2.00e+00   -9.37e+00   -5.03e+01
Req:     2.06e+02    2.06e+02    2.06e+02    1.00e+12    6.44e+02
CAP:     0.00e+00    0.00e+00    0.00e+00    3.11e-13    1.40e-13

Name:    d:u1:i1     d:u1:1      d:u1:2      d:u1:3      d:u1:4
Model:    u1:dx       u1:dx       u1:dx       u1:dx       u1:dx
Id:     -3.69e-13   -2.14e-12   -2.59e-12   -1.99e-12   -2.40e-12
Vd:     -3.68e-01   -2.14e+00   -2.59e+00   -1.99e+00   -2.40e+00
Req:     1.00e+12    1.00e+12    1.00e+12    1.00e+12    1.00e+12
CAP:     8.55e-13    5.64e-13    5.28e-13    5.78e-13    5.42e-13

Name:    d:u1:5      d:u1:6      d:u1:n1     d:u1:n2     d:u1:n3
Model:    u1:dx       u1:dx      u1:den      u1:den      u1:din
Id:      3.00e-10   -4.00e-11    8.63e-04    8.63e-04    1.26e-04
Vd:      3.26e-01   -4.00e+01    2.00e+00    2.00e+00    2.00e+00
Req:     8.64e+07    1.00e+12    3.00e+01    3.00e+01    2.06e+02
CAP:     1.22e-12    1.56e-13    0.00e+00    0.00e+00    0.00e+00

Name:    d:u1:n4     d:u1:n5     d:u1:n6     d:u1:7      d:u1:8
Model:   u1:din      u1:din      u1:din       u1:dy       u1:dy
Id:      1.26e-04    1.26e-04    1.26e-04   -9.67e-12   -2.50e-10
Vd:      2.00e+00    2.00e+00    2.00e+00   -9.67e+00   -5.00e+01
Req:     2.06e+02    2.06e+02    2.06e+02    1.00e+12    1.27e+08
CAP:     0.00e+00    0.00e+00    0.00e+00    3.06e-13    1.40e-13

Name:    d:u4:i1     d:u4:1      d:u4:2      d:u4:3      d:u4:4
Model:    u4:dx       u4:dx       u4:dx       u4:dx       u4:dx
Id:     -3.69e-13   -2.14e-12   -2.59e-12   -1.99e-12   -2.40e-12
Vd:     -3.68e-01   -2.14e+00   -2.59e+00   -1.99e+00   -2.40e+00
Req:     1.00e+12    1.00e+12    1.00e+12    1.00e+12    1.00e+12
CAP:     8.55e-13    5.64e-13    5.28e-13    5.78e-13    5.42e-13

Name:    d:u4:5      d:u4:6      d:u4:n1     d:u4:n2     d:u4:n3
Model:    u4:dx       u4:dx      u4:den      u4:den      u4:din
Id:     -4.00e-11    3.10e-10    8.63e-04    8.63e-04    1.26e-04
Vd:     -4.00e+01    3.27e-01    2.00e+00    2.00e+00    2.00e+00
Req:     1.00e+12    8.35e+07    3.00e+01    3.00e+01    2.06e+02
CAP:     1.56e-13    1.22e-12    0.00e+00    0.00e+00    0.00e+00

Name:    d:u4:n4     d:u4:n5     d:u4:n6     d:u4:7      d:u4:8
Model:   u4:din      u4:din      u4:din       u4:dy       u4:dy
Id:      1.26e-04    1.26e-04    1.26e-04   -2.61e-10   -9.67e-12
Vd:      2.00e+00    2.00e+00    2.00e+00   -5.00e+01   -9.67e+00
Req:     2.06e+02    2.06e+02    2.06e+02    1.23e+08    1.00e+12
CAP:     0.00e+00    0.00e+00    0.00e+00    1.40e-13    3.06e-13

Name:    d:u5:i1     d:u5:1      d:u5:2      d:u5:3      d:u5:4
Model:    u5:dx       u5:dx       u5:dx       u5:dx       u5:dx
Id:     -3.70e-13   -3.26e-12   -1.47e-12   -1.99e-12   -2.40e-12
Vd:     -3.69e-01   -3.26e+00   -1.47e+00   -1.99e+00   -2.40e+00
Req:     1.00e+12    1.00e+12    1.00e+12    1.00e+12    1.00e+12
CAP:     8.55e-13    4.84e-13    6.36e-13    5.78e-13    5.43e-13

Name:    d:u5:5      d:u5:6      d:u5:n1     d:u5:n2     d:u5:n3
Model:    u5:dx       u5:dx      u5:den      u5:den      u5:din
Id:     -4.03e-11    3.51e-05    8.63e-04    8.63e-04    1.26e-04
Vd:     -4.03e+01    6.28e-01    2.00e+00    2.00e+00    2.00e+00
Req:     1.00e+12    7.37e+02    3.00e+01    3.00e+01    2.06e+02
CAP:     1.56e-13    1.60e-12    0.00e+00    0.00e+00    0.00e+00

Name:    d:u5:n4     d:u5:n5     d:u5:n6     d:u5:7      d:u5:8
Model:   u5:din      u5:din      u5:din       u5:dy       u5:dy
Id:      1.26e-04    1.26e-04    1.26e-04   -3.51e-05   -9.37e-12
Vd:      2.00e+00    2.00e+00    2.00e+00   -5.03e+01   -9.37e+00
Req:     2.06e+02    2.06e+02    2.06e+02    7.37e+02    1.00e+12
CAP:     0.00e+00    0.00e+00    0.00e+00    1.40e-13    3.11e-13

Name:    d:u6:i1     d:u6:1      d:u6:2      d:u6:3      d:u6:4
Model:    u6:dx       u6:dx       u6:dx       u6:dx       u6:dx
Id:      4.44e-04   -4.65e-12   -8.63e-14   -1.99e-12   -2.40e-12
Vd:      6.94e-01   -4.64e+00   -8.54e-02   -1.99e+00   -2.40e+00
Req:     5.82e+01    1.00e+12    9.99e+11    1.00e+12    1.00e+12
CAP:     1.69e-12    4.21e-13    9.60e-13    5.78e-13    5.43e-13

Name:    d:u6:5      d:u6:6      d:u6:n1     d:u6:n2     d:u6:n3
Model:    u6:dx       u6:dx      u6:den      u6:den      u6:din
Id:     -4.03e-11    2.82e-05    8.63e-04    8.63e-04    1.26e-04
Vd:     -4.03e+01    6.22e-01    2.00e+00    2.00e+00    2.00e+00
Req:     1.00e+12    9.19e+02    3.00e+01    3.00e+01    2.06e+02
CAP:     1.56e-13    1.59e-12    0.00e+00    0.00e+00    0.00e+00

Name:    d:u6:n4     d:u6:n5     d:u6:n6     d:u6:7      d:u6:8
Model:   u6:din      u6:din      u6:din       u6:dy       u6:dy
Id:      1.26e-04    1.26e-04    1.26e-04   -2.82e-05   -9.38e-12
Vd:      2.00e+00    2.00e+00    2.00e+00   -5.03e+01   -9.38e+00
Req:     2.06e+02    2.06e+02    2.06e+02    9.19e+02    1.00e+12
CAP:     0.00e+00    0.00e+00    0.00e+00    1.40e-13    3.10e-13

Name:    d:u7:i1     d:u7:1      d:u7:2      d:u7:3      d:u7:4
Model:    u7:dx       u7:dx       u7:dx       u7:dx       u7:dx
Id:      2.26e-14    3.07e-01   -5.59e-12    2.27e-11   -4.65e-12
Vd:      2.13e-02    8.63e-01   -5.59e+00    2.59e-01   -4.65e+00
Req:     9.19e+11    8.42e-02    1.00e+12    1.15e+09    1.00e+12
CAP:     1.01e-12    1.93e-12    3.89e-13    1.16e-12    4.21e-13

Name:    d:u7:5      d:u7:6      d:u7:n1     d:u7:n2     d:u7:n3
Model:    u7:dx       u7:dx      u7:den      u7:den      u7:din
Id:      2.25e-02   -4.07e-11    8.63e-04    8.63e-04    1.26e-04
Vd:      7.95e-01   -4.07e+01    2.00e+00    2.00e+00    2.00e+00
Req:     1.15e+00    1.00e+12    3.00e+01    3.00e+01    2.06e+02
CAP:     1.83e-12    1.55e-13    0.00e+00    0.00e+00    0.00e+00

Name:    d:u7:n4     d:u7:n5     d:u7:n6     d:u7:7      d:u7:8
Model:   u7:din      u7:din      u7:din       u7:dy       u7:dy
Id:      1.26e-04    1.26e-04    1.26e-04   -9.21e-12   -2.25e-02
Vd:      2.00e+00    2.00e+00    2.00e+00   -9.20e+00   -5.07e+01
Req:     2.06e+02    2.06e+02    2.06e+02    1.00e+12    1.15e+00
CAP:     0.00e+00    0.00e+00    0.00e+00    3.13e-13    1.39e-13

Name:      d1          d2
Model:      d           d
Id:     -3.27e-12    4.50e-02
Vd:     -3.26e+00    7.54e-01
Req:     1.00e+12    5.75e-01
CAP:     0.00e+00    0.00e+00

                        --- JFET Transistors ---
Name:    j:u2:1      j:u2:2      j:u3:1      j:u3:2      j:u1:1
Model:    u2:jx       u2:jx       u3:jx       u3:jx       u1:jx
Id:      1.35e-03    1.35e-03    1.35e-03    1.35e-03    1.35e-03
Vgs:    -8.69e-01   -8.69e-01   -8.69e-01   -8.69e-01   -8.69e-01
Vds:     2.14e+00    2.14e+00    2.14e+00    2.14e+00    2.14e+00
Gm:      4.28e-03    4.28e-03    4.28e-03    4.28e-03    4.28e-03
Gds:     0.00e+00    0.00e+00    0.00e+00    0.00e+00    0.00e+00
Cgs:     1.10e-12    1.10e-12    1.10e-12    1.10e-12    1.10e-12
Cgd:     7.50e-13    7.50e-13    7.50e-13    7.50e-13    7.50e-13

Name:    j:u1:2      j:u4:1      j:u4:2      j:u5:1      j:u5:2
Model:    u1:jx       u4:jx       u4:jx       u5:jx       u5:jx
Id:      1.35e-03    1.35e-03    1.35e-03    1.35e-03    1.35e-03
Vgs:    -8.69e-01   -8.69e-01   -8.69e-01   -8.69e-01   -8.69e-01
Vds:     2.14e+00    2.14e+00    2.14e+00    2.14e+00    2.14e+00
Gm:      4.28e-03    4.28e-03    4.28e-03    4.28e-03    4.28e-03
Gds:     0.00e+00    0.00e+00    0.00e+00    0.00e+00    0.00e+00
Cgs:     1.10e-12    1.10e-12    1.10e-12    1.10e-12    1.10e-12
Cgd:     7.50e-13    7.50e-13    7.50e-13    7.50e-13    7.50e-13

Name:    j:u6:1      j:u6:2      j:u7:1      j:u7:2
Model:    u6:jx       u6:jx       u7:jx       u7:jx
Id:      1.13e-03    1.13e-03    8.20e-12    2.70e-03
Vgs:    -9.23e-01   -9.23e-01   -2.98e+00   -4.79e-01
Vds:     3.53e+00    3.53e+00    4.52e+00    5.31e-01
Gm:      3.92e-03    3.92e-03    0.00e+00    3.57e-03
Gds:     0.00e+00    0.00e+00    0.00e+00    3.35e-03
Cgs:     1.08e-12    1.08e-12    7.52e-13    1.23e-12
Cgd:     6.43e-13    6.43e-13    5.14e-13    1.06e-12


Total elapsed time: 2.360 seconds.

